Freq,Real_S11,Imag_S11,Real_S21,Imag_S21,Room
2400000000.0,0.1619881838560104,0.05292985588312149,0.0001538301439723,-0.006087251007556915,1.0
2400166666.666667,0.1618853211402893,0.05143287405371666,2.75442343991017e-05,-0.006001635920256376,1.0
2400333333.333334,0.1616616547107697,0.04937488958239555,-0.0001728919887682423,-0.006232503801584244,1.0
2400500000.0,0.1617828905582428,0.04725494980812073,-0.0003647258272394538,-0.006219241768121719,1.0
2400666666.666667,0.1614385098218918,0.04542089253664017,-0.0006421835860237479,-0.006313094403594732,1.0
2400833333.333334,0.1616556942462921,0.0431363508105278,-0.0008289958350360394,-0.006350590847432613,1.0
2401000000.0,0.1617774963378906,0.04111722856760025,-0.001055198605172336,-0.006434290669858456,1.0
2401166666.666667,0.1618707031011581,0.03891739994287491,-0.001214544172398746,-0.00652177631855011,1.0
2401333333.333334,0.1619195938110352,0.0367579460144043,-0.001528665074147284,-0.006563218310475349,1.0
2401500000.0,0.1622759997844696,0.03466029465198517,-0.001695882994681597,-0.006394917145371437,1.0
2401666666.666667,0.162583515048027,0.03259081766009331,-0.001956751802936196,-0.006641738582402468,1.0
2401833333.333334,0.1627233028411865,0.03037331625819206,-0.002342198742553592,-0.006374117452651262,1.0
2402000000.0,0.1631119251251221,0.02844478189945221,-0.002671145601198077,-0.006442880723625422,1.0
2402166666.666667,0.1635806262493134,0.0263159666210413,-0.002852813806384802,-0.006426290608942509,1.0
2402333333.333334,0.1640900820493698,0.02442539855837822,-0.003253348171710968,-0.006247002631425858,1.0
2402500000.0,0.1646629422903061,0.022524144500494,-0.003541574813425541,-0.006226330995559692,1.0
2402666666.666667,0.1652711778879166,0.02085059322416782,-0.003960634581744671,-0.00607955502346158,1.0
2402833333.333334,0.1658898591995239,0.01898457296192646,-0.004089836496859789,-0.006043381057679653,1.0
2403000000.0,0.1666637361049652,0.01714852638542652,-0.004489737562835217,-0.005842247977852821,1.0
2403166666.666667,0.1674858927726746,0.01553426124155521,-0.004807958379387856,-0.005810196977108717,1.0
2403333333.333334,0.1682374626398087,0.0140975546091795,-0.005090074148029089,-0.005444421898573637,1.0
2403500000.0,0.1689947843551636,0.01266130711883307,-0.005524489562958479,-0.005352895241230726,1.0
2403666666.666667,0.1699700504541397,0.0110986577346921,-0.005714539904147387,-0.005094595719128847,1.0
2403833333.333334,0.1707425564527512,0.009918343275785446,-0.005898389965295792,-0.004884648136794567,1.0
2404000000.0,0.1716186106204987,0.00877203419804573,-0.00603447575122118,-0.004776762332767248,1.0
2404166666.666667,0.1725920885801315,0.007427914068102837,-0.006495881360024214,-0.004150961991399527,1.0
2404333333.333334,0.1733356267213821,0.006697280798107386,-0.00676399702206254,-0.00393487187102437,1.0
2404500000.0,0.1740961968898773,0.005553184542804956,-0.006707547698169947,-0.003643057309091091,1.0
2404666666.666667,0.1749979257583618,0.004740486387163401,-0.007056973408907652,-0.003351792460307479,1.0
2404833333.333334,0.1757219135761261,0.004094363190233707,-0.006949964910745621,-0.002983317943289876,1.0
2405000000.0,0.1765179336071014,0.003380699316039681,-0.007287102285772562,-0.00279922247864306,1.0
2405166666.666667,0.1772545725107193,0.002807109616696835,-0.007550976239144802,-0.002379658631980419,1.0
2405333333.333334,0.1780342012643814,0.002116616349667311,-0.007487074006348848,-0.00190250005107373,1.0
2405500000.0,0.1786564737558365,0.001843443838879466,-0.007561991456896067,-0.00139621424023062,1.0
2405666666.666667,0.1791453212499619,0.001403254107572138,-0.007662903517484665,-0.001168920192867518,1.0
2405833333.333334,0.179530069231987,0.001328318496234715,-0.007874895818531513,-0.0008788041886873543,1.0
2406000000.0,0.180166557431221,0.0009350175387226045,-0.007752479054033756,-0.0003937767760362476,1.0
2406166666.666667,0.1802986413240433,0.0008654622361063957,-0.00744777824729681,5.734038495575078e-05,1.0
2406333333.333334,0.1808091402053833,0.0006505984929390252,-0.007721767760813236,0.0002593332319520414,1.0
2406500000.0,0.1809468269348145,0.0003896672278642654,-0.007469007279723883,0.0007051776628941298,1.0
2406666666.666667,0.1808392703533173,0.0002390961453784257,-0.007284019142389298,0.0009709509322419763,1.0
2406833333.333334,0.1810868382453919,5.15180108777713e-05,-0.007390087004750967,0.001212218194268644,1.0
2407000000.0,0.1810175478458405,-0.0002551785728428513,-0.007178554311394692,0.001533714937977493,1.0
2407166666.666667,0.1811108142137528,-0.0003896329726558179,-0.007045020814985037,0.001769981812685728,1.0
2407333333.333334,0.1808070838451386,-0.0007247172179631889,-0.006994789931923151,0.002044055843725801,1.0
2407500000.0,0.180475726723671,-0.0008034952916204929,-0.006740443408489227,0.002294310601428151,1.0
2407666666.666667,0.1802175492048264,-0.001125679351389408,-0.006643430795520544,0.002560735680162907,1.0
2407833333.333334,0.1797236502170563,-0.001675505074672401,-0.00640268437564373,0.002834504470229149,1.0
2408000000.0,0.1792082935571671,-0.002262491034343839,-0.006259833928197622,0.003130232449620962,1.0
2408166666.666667,0.1786487549543381,-0.002450084779411554,-0.006032977253198624,0.00343995145522058,1.0
2408333333.333334,0.1782357096672058,-0.003138342872262001,-0.005834697280079126,0.003562197322025895,1.0
2408500000.0,0.1775270700454712,-0.003893289482221007,-0.005617769435048103,0.003747810143977404,1.0
2408666666.666667,0.1768189072608948,-0.004691716749221087,-0.005432835314422846,0.003909476567059755,1.0
2408833333.333334,0.1758125424385071,-0.005566354840993881,-0.005160824861377478,0.004036827944219112,1.0
2409000000.0,0.1750464737415314,-0.006373486015945673,-0.005013054236769676,0.004328472074121237,1.0
2409166666.666667,0.1742706149816513,-0.007412538398057222,-0.004838029853999615,0.004449619445949793,1.0
2409333333.333334,0.1735605597496033,-0.008688575588166714,-0.004682493861764669,0.004411722999066114,1.0
2409500000.0,0.1726895868778229,-0.00990198738873005,-0.004346413537859917,0.004517446272075176,1.0
2409666666.666667,0.1717591434717178,-0.01120197400450707,-0.004088290967047215,0.004722112324088812,1.0
2409833333.333334,0.1709893941879273,-0.01256193593144417,-0.00393840903416276,0.004818765446543694,1.0
2410000000.0,0.1704432219266892,-0.01404631417244673,-0.003739948151633143,0.004817287437617779,1.0
2410166666.666667,0.169584646821022,-0.01551080122590065,-0.003649564692750573,0.004988296888768673,1.0
2410333333.333334,0.1688361316919327,-0.01723270863294601,-0.003325852798298001,0.004766724072396755,1.0
2410500000.0,0.1682222336530685,-0.01905646361410618,-0.003169542411342263,0.00495152547955513,1.0
2410666666.666667,0.1675856709480286,-0.0207101833075285,-0.002909598872065544,0.005062525160610676,1.0
2410833333.333334,0.1671120524406433,-0.02263659983873367,-0.00294940173625946,0.004999874625355005,1.0
2411000000.0,0.1665693521499634,-0.02439019829034805,-0.002716489369049668,0.004980253055691719,1.0
2411166666.666667,0.1659855097532272,-0.02653510123491287,-0.002584513276815414,0.005028577987104654,1.0
2411333333.333334,0.1656863242387772,-0.02833608351647854,-0.002424326725304127,0.005141845904290676,1.0
2411500000.0,0.1654018312692642,-0.03052548319101334,-0.002341663464903832,0.005175539292395115,1.0
2411666666.666667,0.1652437597513199,-0.03250255435705185,-0.002282271860167384,0.005170713178813458,1.0
2411833333.333334,0.165152832865715,-0.03461125865578651,-0.002218961250036955,0.00524654658511281,1.0
2412000000.0,0.1652244776487351,-0.03676296025514603,-0.001891127089038491,0.005141470115631819,1.0
2412166666.666667,0.1651462316513062,-0.03865047171711922,-0.001810607966035605,0.00521110137924552,1.0
2412333333.333334,0.1652399301528931,-0.04067195579409599,-0.001717733917757869,0.005338824819773436,1.0
2412500000.0,0.1654073745012283,-0.04288926348090172,-0.001609999919310212,0.005322216544300318,1.0
2412666666.666667,0.1656330674886704,-0.04489307850599289,-0.001382092712447047,0.005492468364536762,1.0
2412833333.333334,0.1660166382789612,-0.04667369276285172,-0.001145487884059548,0.005580292083323002,1.0
2413000000.0,0.1662598699331284,-0.04851676896214485,-0.0009616754832677543,0.005773782264441252,1.0
2413166666.666667,0.1667538434267044,-0.05051160231232643,-0.0008337797480635345,0.005808264948427677,1.0
2413333333.333334,0.1671115905046463,-0.05220179259777069,-0.0006439313874579966,0.005923559423536062,1.0
2413500000.0,0.1675948351621628,-0.05397387593984604,-0.0004821612674277276,0.005840891040861607,1.0
2413666666.666667,0.1681152582168579,-0.05558513477444649,-0.0002406675193924457,0.006113945506513119,1.0
2413833333.333334,0.1685794740915299,-0.05720217525959015,-1.042403346218634e-05,0.006038126070052385,1.0
2414000000.0,0.1691483557224274,-0.05857498943805695,0.0002967710897792131,0.005836181808263063,1.0
2414166666.666667,0.1698728352785111,-0.05983459949493408,0.0005788667476736009,0.005853090435266495,1.0
2414333333.333334,0.1703776121139526,-0.06127326190471649,0.0008803916862234473,0.005845386069267988,1.0
2414500000.0,0.1710918992757797,-0.06226472929120064,0.0009983747731894255,0.005771443247795105,1.0
2414666666.666667,0.1715082973241806,-0.06338346004486084,0.001336184330284596,0.005803158972412348,1.0
2414833333.333334,0.1719767153263092,-0.0644417554140091,0.001503127044998109,0.005782288033515215,1.0
2415000000.0,0.1723904609680176,-0.06532301008701324,0.001704461756162345,0.005738501902669668,1.0
2415166666.666667,0.1729740351438522,-0.06617940217256546,0.001971914200112224,0.005592585541307926,1.0
2415333333.333334,0.1735858619213104,-0.0669143944978714,0.002390108769759536,0.005530707538127899,1.0
2415500000.0,0.1738193184137344,-0.0673082172870636,0.002368871122598648,0.005376833956688643,1.0
2415666666.666667,0.1740962415933609,-0.06790677458047867,0.002574133686721325,0.005353920627385378,1.0
2415833333.333334,0.1744459569454193,-0.06828249990940094,0.00270871096290648,0.005285404156893492,1.0
2416000000.0,0.1743942648172379,-0.06876248121261597,0.002950044814497232,0.005190749187022448,1.0
2416166666.666667,0.1747535765171051,-0.06902739405632019,0.003227455075830221,0.004945558961480856,1.0
2416333333.333334,0.1745966374874115,-0.06924179941415787,0.00346224894747138,0.004697494208812714,1.0
2416500000.0,0.1745539009571075,-0.06966646015644073,0.003477496793493629,0.004562843590974808,1.0
2416666666.666667,0.1742944419384003,-0.0696154311299324,0.003712501144036651,0.004508930258452892,1.0
2416833333.333334,0.1742314398288727,-0.06994625180959702,0.003776145167648792,0.004239744041115046,1.0
2417000000.0,0.1736602187156677,-0.0700048953294754,0.004024472087621689,0.003939945716410875,1.0
2417166666.666667,0.1731729954481125,-0.06990661472082138,0.004022945649921894,0.003884199308231473,1.0
2417333333.333334,0.172714501619339,-0.07010003179311752,0.004234282299876213,0.003498686477541924,1.0
2417500000.0,0.1720041930675507,-0.0703045204281807,0.00455054035410285,0.003359923372045159,1.0
2417666666.666667,0.1713561415672302,-0.07027056813240051,0.004484717734158039,0.003080558264628053,1.0
2417833333.333334,0.1704261749982834,-0.07031383365392685,0.004467383027076721,0.002933561569079757,1.0
2418000000.0,0.1695715934038162,-0.07063964754343033,0.004498658236116171,0.002797808265313506,1.0
2418166666.666667,0.1683952063322067,-0.07066025584936142,0.004618267994374037,0.002665905747562647,1.0
2418333333.333334,0.1676816642284393,-0.07104020565748215,0.004710604436695576,0.002226460492238402,1.0
2418500000.0,0.1662241518497467,-0.07120711356401443,0.004558572079986334,0.002243781462311745,1.0
2418666666.666667,0.1653145700693131,-0.07172137498855591,0.00472773052752018,0.002076300326734781,1.0
2418833333.333334,0.1638428568840027,-0.07204974442720413,0.004622742999345064,0.001875490415841341,1.0
2419000000.0,0.1625264436006546,-0.07252459973096848,0.004795009735971689,0.001639756956137717,1.0
2419166666.666667,0.1612346768379211,-0.07307388633489609,0.004738427698612213,0.001551473163999617,1.0
2419333333.333334,0.159889355301857,-0.07356540858745575,0.004696868360042572,0.001392467995174229,1.0
2419500000.0,0.1584555506706238,-0.07451716810464859,0.004755856469273567,0.001354373875074089,1.0
2419666666.666667,0.1572324335575104,-0.07524991780519485,0.004818865098059177,0.001254861359484494,1.0
2419833333.333334,0.1558328419923782,-0.07611863315105438,0.004687977023422718,0.001108891447074711,1.0
2420000000.0,0.1546036154031754,-0.07702117413282394,0.004684696439653635,0.0007915316964499652,1.0
2420166666.666667,0.1531660258769989,-0.07801789045333862,0.004861603025346994,0.0008401931845583022,1.0
2420333333.333334,0.152010589838028,-0.07919463515281677,0.004866668954491615,0.0005724653601646423,1.0
2420500000.0,0.1507820785045624,-0.08038099110126495,0.004898838233202696,0.0004318651626817882,1.0
2420666666.666667,0.1495849341154099,-0.08160848915576935,0.004750292282551527,0.000130815984448418,1.0
2420833333.333334,0.1484549939632416,-0.08318158239126205,0.00480931019410491,6.153699359856546e-06,1.0
2421000000.0,0.1472235321998596,-0.08465781062841415,0.004857649095356464,-9.84043872449547e-05,1.0
2421166666.666667,0.1464632600545883,-0.08613558113574982,0.004780875984579325,-0.000289700721623376,1.0
2421333333.333334,0.1456430703401566,-0.08780195564031601,0.004794082138687372,-0.0004388947563711554,1.0
2421500000.0,0.1448875814676285,-0.08935873210430145,0.004669038113206625,-0.0006652798620052636,1.0
2421666666.666667,0.144200399518013,-0.09112924337387085,0.004656053613871336,-0.0008993527153506875,1.0
2421833333.333334,0.1435587257146835,-0.09284356981515884,0.004491729196161032,-0.001010011648759246,1.0
2422000000.0,0.1431497186422348,-0.09455829113721848,0.004596984479576349,-0.0009223177330568433,1.0
2422166666.666667,0.1426250040531158,-0.09671086072921753,0.00436928728595376,-0.001415980281308293,1.0
2422333333.333334,0.1423519551753998,-0.09808003157377243,0.004283815156668425,-0.001483449363149703,1.0
2422500000.0,0.1420162171125412,-0.0999666079878807,0.004332884214818478,-0.001531406072899699,1.0
2422666666.666667,0.1418129801750183,-0.1016591638326645,0.00437900610268116,-0.001768310321494937,1.0
2422833333.333334,0.1418949514627457,-0.1036754548549652,0.004169008694589138,-0.001726828282698989,1.0
2423000000.0,0.141799658536911,-0.1053797379136086,0.004056552890688181,-0.001963704125955701,1.0
2423166666.666667,0.1421023905277252,-0.1070080623030663,0.003814114024862647,-0.002164780162274838,1.0
2423333333.333334,0.1423140913248062,-0.1086402386426926,0.003744447138160467,-0.002154636895284057,1.0
2423500000.0,0.1424493789672852,-0.1102693006396294,0.003766600741073489,-0.002332982374355197,1.0
2423666666.666667,0.142819344997406,-0.1120607331395149,0.003663193201646209,-0.002488687634468079,1.0
2423833333.333334,0.1431232988834381,-0.1135114431381226,0.003552941838279367,-0.002629648661240935,1.0
2424000000.0,0.1436123549938202,-0.1149217113852501,0.003457793267443776,-0.002549616619944572,1.0
2424166666.666667,0.1440812051296234,-0.116349957883358,0.003261375240981579,-0.002651492366567254,1.0
2424333333.333334,0.1445097029209137,-0.1175616532564163,0.00317961978726089,-0.00269375741481781,1.0
2424500000.0,0.144991397857666,-0.1188774928450584,0.003204232314601541,-0.003001997945830226,1.0
2424666666.666667,0.1456962674856186,-0.1195494309067726,0.002946645021438599,-0.003177226521074772,1.0
2424833333.333334,0.1460359990596771,-0.1207558289170265,0.003002910176292062,-0.00323435734026134,1.0
2425000000.0,0.1465659588575363,-0.1218095123767853,0.002802745439112186,-0.003261507023125887,1.0
2425166666.666667,0.1469051539897919,-0.1225778236985207,0.002487491583451629,-0.003495974699035287,1.0
2425333333.333334,0.1475116014480591,-0.1232977584004402,0.002369873225688934,-0.003583209356293082,1.0
2425500000.0,0.1479529291391373,-0.1239551454782486,0.002377499826252461,-0.003676132997497916,1.0
2425666666.666667,0.148087203502655,-0.1245447769761086,0.002121288096532226,-0.003823882434517145,1.0
2425833333.333334,0.1484658271074295,-0.1249266937375069,0.001941386377438903,-0.003750609466806054,1.0
2426000000.0,0.148755207657814,-0.1254365891218185,0.001726644113659859,-0.00390644883736968,1.0
2426166666.666667,0.1491941958665848,-0.1257430464029312,0.001577552990056574,-0.003757081227377057,1.0
2426333333.333334,0.1492787599563599,-0.1258342266082764,0.001391172059811652,-0.003953015431761742,1.0
2426500000.0,0.1493062674999237,-0.126118466258049,0.001166601432487369,-0.004057528916746378,1.0
2426666666.666667,0.1493421494960785,-0.1260052621364594,0.0009302055113948882,-0.003953418228775263,1.0
2426833333.333334,0.1492412388324738,-0.1262455433607101,0.000778112153057009,-0.004012490157037973,1.0
2427000000.0,0.1489424407482147,-0.1261993795633316,0.000874119985383004,-0.00378230051137507,1.0
2427166666.666667,0.1486632972955704,-0.1260750591754913,0.000536951411049813,-0.003889973508194089,1.0
2427333333.333334,0.1482227146625519,-0.1260986328125,0.0003059542214032263,-0.003915058448910713,1.0
2427500000.0,0.1477506011724472,-0.1259371340274811,0.0001826779334805906,-0.003940082620829344,1.0
2427666666.666667,0.1470364928245544,-0.1257833242416382,-7.479614578187466e-05,-0.003765034954994917,1.0
2427833333.333334,0.1461200267076492,-0.1257425993680954,-0.0001684401795500889,-0.003855659160763025,1.0
2428000000.0,0.1453515440225601,-0.1257783323526382,-0.0003260546654928476,-0.003515972290188074,1.0
2428166666.666667,0.1444924622774124,-0.1256362199783325,-0.0004422256315592676,-0.003684381023049355,1.0
2428333333.333334,0.1436565071344376,-0.125562310218811,-0.0005022761761210859,-0.003569166641682386,1.0
2428500000.0,0.1424146145582199,-0.125650942325592,-0.0006127333035692573,-0.003464285749942064,1.0
2428666666.666667,0.1411060243844986,-0.1256206631660461,-0.000781046284828335,-0.003439913270995021,1.0
2428833333.333334,0.1396933048963547,-0.1256470829248428,-0.0007800131570547819,-0.003290731925517321,1.0
2429000000.0,0.1382977962493897,-0.1256936490535736,-0.00102320418227464,-0.003181799314916134,1.0
2429166666.666667,0.136556938290596,-0.1258277893066406,-0.001099592540413141,-0.003214947413653135,1.0
2429333333.333334,0.1350443363189697,-0.1262879371643066,-0.001182823209092021,-0.00305770430713892,1.0
2429500000.0,0.1334028393030167,-0.1265388429164887,-0.001248853397555649,-0.002875521080568433,1.0
2429666666.666667,0.1316408067941666,-0.1268426924943924,-0.001365180476568639,-0.002970625180751085,1.0
2429833333.333334,0.1298720687627792,-0.1272558718919754,-0.001373717212118208,-0.002696374198421836,1.0
2430000000.0,0.1280560791492462,-0.1279494017362595,-0.001535799005068839,-0.002697485266253352,1.0
2430166666.666667,0.1263711452484131,-0.1286124289035797,-0.001541560748592019,-0.002506989752873778,1.0
2430333333.333334,0.1244602352380753,-0.1291815340518951,-0.001574277877807617,-0.002596313133835793,1.0
2430500000.0,0.1225931122899056,-0.1299486309289932,-0.001661351532675326,-0.002348730573430657,1.0
2430666666.666667,0.1207497864961624,-0.1310826987028122,-0.001693343976512551,-0.002400283934548497,1.0
2430833333.333334,0.1189349293708801,-0.131911426782608,-0.001722181448712945,-0.002237215870991349,1.0
2431000000.0,0.117318294942379,-0.1327097564935684,-0.001631626044400036,-0.002229324541985989,1.0
2431166666.666667,0.1154880598187447,-0.1339814364910126,-0.001824992941692472,-0.002095757750794292,1.0
2431333333.333334,0.1136823669075966,-0.1351872831583023,-0.001846440485678613,-0.002042825100943446,1.0
2431500000.0,0.1121859699487686,-0.1363646388053894,-0.001877408591099083,-0.001995834521949291,1.0
2431666666.666667,0.110663652420044,-0.137641504406929,-0.00185800832696259,-0.001938009401783347,1.0
2431833333.333334,0.1090340316295624,-0.1392693221569061,-0.001974730519577861,-0.001842354075051844,1.0
2432000000.0,0.1076059266924858,-0.1405228227376938,-0.002112557180225849,-0.001825665240176022,1.0
